
**** 03/03/20 14:28:11 *********** Evaluation PSpice (Nov 1999) **************

 * W:\TCO\prac4\Circuito_Polarizacion.sch


 ****     CIRCUIT DESCRIPTION


******************************************************************************




* Schematics Version 9.1 - Web Update 1
* Tue Mar 03 14:27:46 2020



** Analysis setup **
.OP 


* From [PSPICE NETLIST] section of pspiceev.ini:
.lib "nom.lib"

.INC "Circuito_Polarizacion.net"

**** INCLUDING Circuito_Polarizacion.net ****
* Schematics Netlist *



R_R3         $N_0002 $N_0001  1k  
M_M1         $N_0002 $N_0003 0 0 MbreakN           
V_V1         $N_0001 0 10V
R_R1         $N_0003 $N_0001  6k  
R_R2         0 $N_0003  4k  

**** RESUMING Circuito_Polarizacion.cir ****
.INC "Circuito_Polarizacion.als"



**** INCLUDING Circuito_Polarizacion.als ****
* Schematics Aliases *

.ALIASES
R_R3            R3(1=$N_0002 2=$N_0001 )
M_M1            M1(d=$N_0002 g=$N_0003 s=0 s=0 )
V_V1            V1(+=$N_0001 -=0 )
R_R1            R1(1=$N_0003 2=$N_0001 )
R_R2            R2(1=0 2=$N_0003 )
.ENDALIASES


**** RESUMING Circuito_Polarizacion.cir ****
.probe


.END

**** 03/03/20 14:28:11 *********** Evaluation PSpice (Nov 1999) **************

 * W:\TCO\prac4\Circuito_Polarizacion.sch


 ****     MOSFET MODEL PARAMETERS


******************************************************************************




               MbreakN         
               NMOS            
       LEVEL    1            
           L  100.000000E-06 
           W  100.000000E-06 
         VTO    0            
          KP   20.000000E-06 
       GAMMA    0            
         PHI     .6          
      LAMBDA    0            
          IS   10.000000E-15 
          JS    0            
          PB     .8          
        PBSW     .8          
          CJ    0            
        CJSW    0            
        CGSO    0            
        CGDO    0            
        CGBO    0            
         TOX    0            
          XJ    0            
       UCRIT   10.000000E+03 
      DIOMOD    1            
         VFB    0            
        LETA    0            
        WETA    0            
          U0    0            
        TEMP    0            
         VDD    0            
       XPART    0            


**** 03/03/20 14:28:11 *********** Evaluation PSpice (Nov 1999) **************

 * W:\TCO\prac4\Circuito_Polarizacion.sch


 ****     SMALL SIGNAL BIAS SOLUTION       TEMPERATURE =   27.000 DEG C


******************************************************************************



 NODE   VOLTAGE     NODE   VOLTAGE     NODE   VOLTAGE     NODE   VOLTAGE


($N_0001)   10.0000                   ($N_0002)    9.8400                       

($N_0003)    4.0000                   




    VOLTAGE SOURCE CURRENTS
    NAME         CURRENT

    V_V1        -1.160E-03

    TOTAL POWER DISSIPATION   1.16E-02  WATTS


**** 03/03/20 14:28:11 *********** Evaluation PSpice (Nov 1999) **************

 * W:\TCO\prac4\Circuito_Polarizacion.sch


 ****     OPERATING POINT INFORMATION      TEMPERATURE =   27.000 DEG C


******************************************************************************






**** MOSFETS


NAME         M_M1      
MODEL        MbreakN   
ID           1.60E-04 
VGS          4.00E+00 
VDS          9.84E+00 
VBS          0.00E+00 
VTH          0.00E+00 
VDSAT        4.00E+00 
Lin0/Sat1   -1.00E+00 
if          -1.00E+00 
ir          -1.00E+00 
TAU         -1.00E+00 
GM           8.00E-05 
GDS          0.00E+00 
GMB          0.00E+00 
CBD          0.00E+00 
CBS          0.00E+00 
CGSOV        0.00E+00 
CGDOV        0.00E+00 
CGBOV        0.00E+00 
CGS          0.00E+00 
CGD          0.00E+00 
CGB          0.00E+00 

          JOB CONCLUDED

          TOTAL JOB TIME             .02
