
**** 03/10/20 14:02:57 *********** Evaluation PSpice (Nov 1999) **************

 * W:\TCO\pract5\Apartat1.sch


 ****     CIRCUIT DESCRIPTION


******************************************************************************




* Schematics Version 9.1 - Web Update 1
* Tue Mar 10 14:02:56 2020



** Analysis setup **
.tran 1n 120n
.OP 
.LIB "W:\TCO\pract5\Apartat1.lib"


* From [PSPICE NETLIST] section of pspiceev.ini:
.lib "nom.lib"

.INC "Apartat1.net"

**** INCLUDING Apartat1.net ****
* Schematics Netlist *



M_M1         $N_0002 $N_0001 0 0 MbreakN-X  
+ L=1u  
+ W=2u         
V_VDD         $N_0003 0 5V
R_R1         $N_0002 $N_0003  90k  
V_V3         $N_0001 0  
+PULSE 0V 5V 10n 2n 2n 40n 100n

**** RESUMING Apartat1.cir ****
.INC "Apartat1.als"



**** INCLUDING Apartat1.als ****
* Schematics Aliases *

.ALIASES
M_M1            M1(d=$N_0002 g=$N_0001 s=0 s=0 )
V_VDD           VDD(+=$N_0003 -=0 )
R_R1            R1(1=$N_0002 2=$N_0003 )
V_V3            V3(+=$N_0001 -=0 )
.ENDALIASES


**** RESUMING Apartat1.cir ****
.probe


.END

**** 03/10/20 14:02:57 *********** Evaluation PSpice (Nov 1999) **************

 * W:\TCO\pract5\Apartat1.sch


 ****     MOSFET MODEL PARAMETERS


******************************************************************************




               MbreakN-X       
               NMOS            
       LEVEL    1            
           L  100.000000E-06 
           W  100.000000E-06 
         VTO    1            
          KP   50.000000E-06 
       GAMMA    0            
         PHI     .6          
      LAMBDA    0            
          IS   10.000000E-15 
          JS    0            
          PB     .8          
        PBSW     .8          
          CJ    0            
        CJSW    0            
        CGSO    0            
        CGDO    0            
        CGBO    0            
         TOX    0            
          XJ    0            
       UCRIT   10.000000E+03 
      DIOMOD    1            
         VFB    0            
        LETA    0            
        WETA    0            
          U0    0            
        TEMP    0            
         VDD    0            
       XPART    0            


**** 03/10/20 14:02:57 *********** Evaluation PSpice (Nov 1999) **************

 * W:\TCO\pract5\Apartat1.sch


 ****     SMALL SIGNAL BIAS SOLUTION       TEMPERATURE =   27.000 DEG C


******************************************************************************



 NODE   VOLTAGE     NODE   VOLTAGE     NODE   VOLTAGE     NODE   VOLTAGE


($N_0001)    0.0000                   ($N_0002)    5.0000                       

($N_0003)    5.0000                   




    VOLTAGE SOURCE CURRENTS
    NAME         CURRENT

    V_VDD       -5.010E-12
    V_V3         0.000E+00

    TOTAL POWER DISSIPATION   2.51E-11  WATTS


**** 03/10/20 14:02:57 *********** Evaluation PSpice (Nov 1999) **************

 * W:\TCO\pract5\Apartat1.sch


 ****     OPERATING POINT INFORMATION      TEMPERATURE =   27.000 DEG C


******************************************************************************






**** MOSFETS


NAME         M_M1      
MODEL        MbreakN-X 
ID           5.01E-12 
VGS          0.00E+00 
VDS          5.00E+00 
VBS          0.00E+00 
VTH          1.00E+00 
VDSAT        0.00E+00 
Lin0/Sat1   -1.00E+00 
if          -1.00E+00 
ir          -1.00E+00 
TAU         -1.00E+00 
GM           0.00E+00 
GDS          0.00E+00 
GMB          0.00E+00 
CBD          0.00E+00 
CBS          0.00E+00 
CGSOV        0.00E+00 
CGDOV        0.00E+00 
CGBOV        0.00E+00 
CGS          0.00E+00 
CGD          0.00E+00 
CGB          0.00E+00 
**** 03/10/20 14:02:57 *********** Evaluation PSpice (Nov 1999) **************

 * W:\TCO\pract5\Apartat1.sch


 ****     INITIAL TRANSIENT SOLUTION       TEMPERATURE =   27.000 DEG C


******************************************************************************



 NODE   VOLTAGE     NODE   VOLTAGE     NODE   VOLTAGE     NODE   VOLTAGE


($N_0001)    0.0000                   ($N_0002)    5.0000                       

($N_0003)    5.0000                   




    VOLTAGE SOURCE CURRENTS
    NAME         CURRENT

    V_VDD       -5.010E-12
    V_V3         0.000E+00

    TOTAL POWER DISSIPATION   2.51E-11  WATTS



          JOB CONCLUDED

          TOTAL JOB TIME             .14
