
**** 04/24/20 10:56:01 *********** Evaluation PSpice (Nov 1999) **************

 * F:\Dropbox\Universidad Dropbox\1er Curso\2o Cuatri\TCO\Laboratorio\Pract 7\Archivos PSpice\Apartat1.sch


 ****     CIRCUIT DESCRIPTION


******************************************************************************




* Schematics Version 9.1 - Web Update 1
* Fri Apr 24 10:56:01 2020



** Analysis setup **
.OP 
.LIB "F:\Dropbox\Universidad Dropbox\1er Curso\2o Cuatri\TCO\Laboratorio\Pract 7\Archivos PSpice\Apartat1.lib"


* From [PSPICE NETLIST] section of pspiceev.ini:
.lib "nom.lib"

.INC "Apartat1.net"

**** INCLUDING Apartat1.net ****
* Schematics Netlist *



M_M3         $N_0002 $N_0001 0 0 MbreakN-X  
+ L=1u  
+ W=1u         
M_M1         $N_0004 $N_0003 $N_0002 0 MbreakN-X  
+ L=1u  
+ W=1u         
M_M2         $N_0004 $N_0003 $N_0005 $N_0005 MbreakP-X  
+ L=1u  
+ W=1u         
M_M4         $N_0004 $N_0001 $N_0005 $N_0005 MbreakP-X  
+ L=1u  
+ W=1u         
V_VDD         $N_0005 0 5V
V_VA         $N_0003 0 5V
V_VB         $N_0001 0 0V

**** RESUMING Apartat1.cir ****
.INC "Apartat1.als"



**** INCLUDING Apartat1.als ****
* Schematics Aliases *

.ALIASES
M_M3            M3(d=$N_0002 g=$N_0001 s=0 b=0 )
M_M1            M1(d=$N_0004 g=$N_0003 s=$N_0002 b=0 )
M_M2            M2(d=$N_0004 g=$N_0003 s=$N_0005 b=$N_0005 )
M_M4            M4(d=$N_0004 g=$N_0001 s=$N_0005 b=$N_0005 )
V_VDD           VDD(+=$N_0005 -=0 )
V_VA            VA(+=$N_0003 -=0 )
V_VB            VB(+=$N_0001 -=0 )
.ENDALIASES


**** RESUMING Apartat1.cir ****
.probe


.END

**** 04/24/20 10:56:01 *********** Evaluation PSpice (Nov 1999) **************

 * F:\Dropbox\Universidad Dropbox\1er Curso\2o Cuatri\TCO\Laboratorio\Pract 7\Archivos PSpice\Apartat1.sch


 ****     MOSFET MODEL PARAMETERS


******************************************************************************




               MbreakN-X       MbreakP-X       
               NMOS            PMOS            
       LEVEL    1               1            
           L  100.000000E-06  100.000000E-06 
           W  100.000000E-06  100.000000E-06 
         VTO    1              -1            
          KP   15.000000E-06   15.000000E-06 
       GAMMA    0               0            
         PHI     .6              .6          
      LAMBDA    0               0            
          IS   10.000000E-15   10.000000E-15 
          JS    0               0            
          PB     .8              .8          
        PBSW     .8              .8          
          CJ    0               0            
        CJSW    0               0            
        CGSO    0               0            
        CGDO    0               0            
        CGBO    0               0            
         TOX    0               0            
          XJ    0               0            
       UCRIT   10.000000E+03   10.000000E+03 
      DIOMOD    1               1            
         VFB    0               0            
        LETA    0               0            
        WETA    0               0            
          U0    0               0            
        TEMP    0               0            
         VDD    0               0            
       XPART    0               0            


**** 04/24/20 10:56:01 *********** Evaluation PSpice (Nov 1999) **************

 * F:\Dropbox\Universidad Dropbox\1er Curso\2o Cuatri\TCO\Laboratorio\Pract 7\Archivos PSpice\Apartat1.sch


 ****     SMALL SIGNAL BIAS SOLUTION       TEMPERATURE =   27.000 DEG C


******************************************************************************



 NODE   VOLTAGE     NODE   VOLTAGE     NODE   VOLTAGE     NODE   VOLTAGE


($N_0001)    0.0000                   ($N_0002)    3.9990                       

($N_0003)    5.0000                   ($N_0004)    5.0000                       

($N_0005)    5.0000                   




    VOLTAGE SOURCE CURRENTS
    NAME         CURRENT

    V_VDD       -1.303E-11
    V_VA         0.000E+00
    V_VB         0.000E+00

    TOTAL POWER DISSIPATION   6.51E-11  WATTS


**** 04/24/20 10:56:01 *********** Evaluation PSpice (Nov 1999) **************

 * F:\Dropbox\Universidad Dropbox\1er Curso\2o Cuatri\TCO\Laboratorio\Pract 7\Archivos PSpice\Apartat1.sch


 ****     OPERATING POINT INFORMATION      TEMPERATURE =   27.000 DEG C


******************************************************************************






**** MOSFETS


NAME         M_M3        M_M1        M_M2        M_M4      
MODEL        MbreakN-X   MbreakN-X   MbreakP-X   MbreakP-X 
ID           4.01E-12    1.30E-11   -3.01E-19   -1.30E-11 
VGS          0.00E+00    1.00E+00    0.00E+00   -5.00E+00 
VDS          4.00E+00    1.00E+00   -2.17E-07   -2.17E-07 
VBS          0.00E+00   -4.00E+00    0.00E+00    0.00E+00 
VTH          1.00E+00    1.00E+00   -1.00E+00   -1.00E+00 
VDSAT        0.00E+00    1.03E-03    0.00E+00   -4.00E+00 
Lin0/Sat1   -1.00E+00   -1.00E+00   -1.00E+00   -1.00E+00 
if          -1.00E+00   -1.00E+00   -1.00E+00   -1.00E+00 
ir          -1.00E+00   -1.00E+00   -1.00E+00   -1.00E+00 
TAU         -1.00E+00   -1.00E+00   -1.00E+00   -1.00E+00 
GM           0.00E+00    1.55E-08    0.00E+00    3.26E-12 
GDS          0.00E+00    0.00E+00    0.00E+00    6.00E-05 
GMB          0.00E+00    0.00E+00    0.00E+00    0.00E+00 
CBD          0.00E+00    0.00E+00    0.00E+00    0.00E+00 
CBS          0.00E+00    0.00E+00    0.00E+00    0.00E+00 
CGSOV        0.00E+00    0.00E+00    0.00E+00    0.00E+00 
CGDOV        0.00E+00    0.00E+00    0.00E+00    0.00E+00 
CGBOV        0.00E+00    0.00E+00    0.00E+00    0.00E+00 
CGS          0.00E+00    0.00E+00    0.00E+00    0.00E+00 
CGD          0.00E+00    0.00E+00    0.00E+00    0.00E+00 
CGB          0.00E+00    0.00E+00    0.00E+00    0.00E+00 

          JOB CONCLUDED

          TOTAL JOB TIME             .02
